
T10E4 000:382 SEGGER J-Link V4.92 Log File (0001ms, 0283ms total)
T10E4 000:382 DLL Compiled: Sep 30 2014 09:33:42 (0002ms, 0284ms total)
T10E4 000:382 Logging started @ 2015-02-27 13:55 (0003ms, 0285ms total)
T10E4 000:385 JLINK_SetWarnOutHandler(...) (0000ms, 0285ms total)
T10E4 000:385 JLINK_OpenEx(...)
Firmware: J-Link ARM V8 compiled Sep 22 2014 23:26:43
Hardware: V8.00
S/N: 790276659
Feature(s): RDI,FlashDL,FlashBP,JFlash,GDBFull  returns O.K. (0299ms, 0584ms total)
T10E4 000:684 JLINK_SetErrorOutHandler(...) (0000ms, 0584ms total)
T10E4 000:684 JLINK_ExecCommand("ProjectFile = "Y:\Develop\mxchipWNet Pro Demo@EMW316x\Projects\COM.MXCHIP.SPP\RVMDK\JLinkSettings.ini"", ...)Device "UNSPECIFIED" selected (0 KB flash, 0 KB RAM).  returns 0x00 (0010ms, 0594ms total)
T10E4 000:694 JLINK_ExecCommand("Device = STM32F205RGTx", ...)Device "UNSPECIFIED" selected (0 KB flash, 0 KB RAM).  returns 0x00 (0013ms, 0607ms total)
T10E4 000:707 JLINK_ExecCommand("DisableConnectionTimeout", ...)  returns 0x01 (0000ms, 0607ms total)
T10E4 000:708 JLINK_GetHardwareVersion()  returns 0x13880 (0000ms, 0608ms total)
T10E4 000:708 JLINK_GetDLLVersion()  returns 49200 (0001ms, 0609ms total)
T10E4 000:709 JLINK_GetFirmwareString(...) (0000ms, 0609ms total)
T10E4 000:727 JLINK_GetDLLVersion()  returns 49200 (0000ms, 0609ms total)
T10E4 000:728 JLINK_GetCompileDateTime() (0000ms, 0610ms total)
T10E4 000:732 JLINK_GetFirmwareString(...) (0001ms, 0611ms total)
T10E4 000:738 JLINK_GetHardwareVersion()  returns 0x13880 (0000ms, 0611ms total)
T10E4 000:748 JLINK_TIF_Select(JLINKARM_TIF_JTAG)  returns 0x00 (0008ms, 0619ms total)
T10E4 000:756 JLINK_SetSpeed(5000) (0001ms, 0620ms total)
T10E4 000:757 JLINK_GetIdData(...) >0x2F8 JTAG>TotalIRLen = 9, IRPrint = 0x0011 >0x30 JTAG> >0x210 JTAG> >0x70 JTAG> >0x40 JTAG> >0x40 JTAG> >0x40 JTAG> >0x50 JTAG> >0x80 JTAG> >0x40 JTAG> >0x30 JTAG> >0x40 JTAG> >0x40 JTAG> >0x30 JTAG> >0x40 JTAG> >0x50 JTAG>Found Cortex-M3 r2p0, Little endian. -- CPU_WriteMem(4 bytes @ 0xE0002000) -- CPU_ReadMem(4 bytes @ 0xE000EDF0) -- CPU_ReadMem(4 bytes @ 0xE0002000)FPUnit: 6 code (BP) slots and 2 literal slots -- CPU_ReadMem(4 bytes @ 0xE000EDFC)
 -- CPU_ReadMem(4 bytes @ 0xE0001000) -- CPU_WriteMem(4 bytes @ 0xE0001000) -- CPU_ReadMem(4 bytes @ 0xE000ED88) -- CPU_WriteMem(4 bytes @ 0xE000ED88) -- CPU_ReadMem(4 bytes @ 0xE000ED88) -- CPU_WriteMem(4 bytes @ 0xE000ED88) -- CPU_ReadMem(4 bytes @ 0xE00FF010)TPIU fitted. -- CPU_ReadMem(4 bytes @ 0xE00FF014)ETM fitted. -- CPU_ReadMem(4 bytes @ 0xE00FF018) ScanLen=9 NumDevices=2 aId[0]=0x4BA00477 aIrRead[0]=0 aScanLen[0]=0 aScanRead[0]=0 (0066ms, 0686ms total)
T10E4 000:824 JLINK_JTAG_GetDeviceID(DeviceIndex = 0)  returns 0x4BA00477 (0000ms, 0686ms total)
T10E4 000:824 JLINK_JTAG_GetDeviceInfo(DeviceIndex = 0)  returns 0x00 (0001ms, 0687ms total)
T10E4 000:825 JLINK_JTAG_GetDeviceID(DeviceIndex = 1)  returns 0x6411041 (0000ms, 0687ms total)
T10E4 000:825 JLINK_JTAG_GetDeviceInfo(DeviceIndex = 1)  returns 0x00 (0001ms, 0688ms total)
T10E4 000:826 JLINK_GetDeviceFamily()  returns 3 (0000ms, 0688ms total)
T10E4 000:827 JLINK_ReadMem (0xE00FFFF0, 0x0010 Bytes, ...) -- CPU is running -- CPU_ReadMem(16 bytes @ 0xE00FFFF0) - Data: 0D 00 00 00 10 00 00 00 05 00 00 00 B1 00 00 00  returns 0x00 (0002ms, 0690ms total)
T10E4 000:829 JLINK_ReadMem (0xE00FFFD0, 0x0020 Bytes, ...) -- CPU is running -- CPU_ReadMem(32 bytes @ 0xE00FFFD0) - Data: 00 00 00 00 00 00 00 00 00 00 00 00 00 00 00 00 ...  returns 0x00 (0003ms, 0693ms total)
T10E4 000:832 JLINK_ReadMem (0xE00FF000, 0x0018 Bytes, ...) -- CPU is running -- CPU_ReadMem(24 bytes @ 0xE00FF000) - Data: 03 F0 F0 FF 03 20 F0 FF 03 30 F0 FF 03 10 F0 FF ...  returns 0x00 (0003ms, 0696ms total)
T10E4 000:835 JLINK_ReadMemU32(0xE000ED00, 0x0001 Items, ...) -- CPU is running -- CPU_ReadMem(4 bytes @ 0xE000ED00) - Data: 30 C2 2F 41  returns 0x01 (0003ms, 0699ms total)
T10E4 000:838 JLINK_SetResetType(JLINKARM_RESET_TYPE_NORMAL)  returns JLINKARM_RESET_TYPE_NORMAL (0000ms, 0699ms total)
T10E4 000:839 JLINK_Reset() -- CPU is running -- CPU_WriteMem(4 bytes @ 0xE000EDF0) -- CPU is running -- CPU_WriteMem(4 bytes @ 0xE000EDFC) -- CPU is running -- CPU_WriteMem(4 bytes @ 0xE000ED0C) -- CPU is running -- CPU_ReadMem(4 bytes @ 0xE000EDF0) -- CPU is running -- CPU_ReadMem(4 bytes @ 0xE000EDF0) -- CPU is running -- CPU_WriteMem(4 bytes @ 0xE000EDF0) -- CPU is running -- CPU_WriteMem(4 bytes @ 0xE000EDFC) -- CPU is running -- CPU_ReadMem(4 bytes @ 0xE000EDF0) >0x80 JTAG> >0x40 JTAG> >0x30 JTAG>
 >0x40 JTAG> >0x50 JTAG> >0x40 JTAG> -- CPU_WriteMem(4 bytes @ 0xE000EDFC) -- CPU_WriteMem(4 bytes @ 0xE0001028) -- CPU_WriteMem(4 bytes @ 0xE0001038) -- CPU_WriteMem(4 bytes @ 0xE0001048) -- CPU_WriteMem(4 bytes @ 0xE0001058) -- CPU_WriteMem(4 bytes @ 0xE0002000) -- CPU_ReadMem(4 bytes @ 0xE000EDFC) -- CPU_ReadMem(4 bytes @ 0xE0001000) (0052ms, 0752ms total)
T10E4 000:891 JLINK_ReadReg(R15 (PC))  returns 0x080002F8 (0001ms, 0753ms total)
T10E4 000:892 JLINK_ReadReg(XPSR)  returns 0x01000000 (0000ms, 0753ms total)
T10E4 000:892 JLINK_Halt()  returns 0x00 (0001ms, 0754ms total)
T10E4 000:893 JLINK_IsHalted()  returns TRUE (0001ms, 0755ms total)
T10E4 000:894 JLINK_ReadMemU32(0xE000EDF0, 0x0001 Items, ...) -- CPU_ReadMem(4 bytes @ 0xE000EDF0) - Data: 03 00 03 00  returns 0x01 (0002ms, 0756ms total)
T10E4 000:897 JLINK_WriteU32(0xE000EDF0, 0xA05F0003) -- CPU_WriteMem(4 bytes @ 0xE000EDF0)  returns 0x00 (0002ms, 0759ms total)
T10E4 000:899 JLINK_WriteU32(0xE000EDFC, 0x01000000) -- CPU_WriteMem(4 bytes @ 0xE000EDFC)  returns 0x00 (0001ms, 0760ms total)
T10E4 000:904 JLINK_GetHWStatus(...)  returns 0x00 (0002ms, 0762ms total)
T10E4 000:909 JLINK_GetNumBPUnits(Type = 0xFFFFFF00)  returns 0x06 (0001ms, 0763ms total)
T10E4 000:910 JLINK_GetNumBPUnits(Type = 0xF0)  returns 0x2000 (0000ms, 0763ms total)
T10E4 000:910 JLINK_GetNumWPUnits()  returns 0x04 (0000ms, 0763ms total)
T10E4 000:920 JLINK_GetSpeed()  returns 0x12C0 (0001ms, 0764ms total)
T10E4 000:924 JLINK_ReadMemU32(0xE000E004, 0x0001 Items, ...) -- CPU_ReadMem(4 bytes @ 0xE000E004) - Data: 02 00 00 00  returns 0x01 (0003ms, 0767ms total)
T10E4 000:927 JLINK_ReadMemU32(0xE000E004, 0x0001 Items, ...) -- CPU_ReadMem(4 bytes @ 0xE000E004) - Data: 02 00 00 00  returns 0x01 (0002ms, 0769ms total)
T10E4 000:929 JLINK_WriteMem(0xE0001000, 0x001C Bytes, ...) - Data: 01 00 00 00 00 00 00 00 00 00 00 00 00 00 00 00 ... -- CPU_WriteMem(28 bytes @ 0xE0001000)  returns 0x1C (0003ms, 0772ms total)
T10E4 000:932 JLINK_ReadMem (0xE0001000, 0x001C Bytes, ...) -- CPU_ReadMem(28 bytes @ 0xE0001000) - Data: 01 00 00 40 00 00 00 00 00 00 00 00 00 00 00 00 ...  returns 0x00 (0002ms, 0774ms total)
T10E4 000:934 JLINK_ReadReg(R15 (PC))  returns 0x080002F8 (0000ms, 0774ms total)
T10E4 000:934 JLINK_ReadReg(XPSR)  returns 0x01000000 (0001ms, 0775ms total)
T10E4 001:298 JLINK_SetResetType(JLINKARM_RESET_TYPE_NORMAL)  returns JLINKARM_RESET_TYPE_NORMAL (0000ms, 0775ms total)
T10E4 001:298 JLINK_Reset() -- CPU_WriteMem(4 bytes @ 0xE000EDF0) -- CPU_WriteMem(4 bytes @ 0xE000EDFC) -- CPU_WriteMem(4 bytes @ 0xE000ED0C) -- CPU_ReadMem(4 bytes @ 0xE000EDF0) -- CPU_ReadMem(4 bytes @ 0xE000EDF0) -- CPU_WriteMem(4 bytes @ 0xE000EDF0) -- CPU_WriteMem(4 bytes @ 0xE000EDFC) -- CPU is running -- CPU_ReadMem(4 bytes @ 0xE000EDF0) >0x80 JTAG> >0x40 JTAG> >0x30 JTAG> >0x40 JTAG> >0x50 JTAG> >0x40 JTAG> -- CPU_WriteMem(4 bytes @ 0xE000EDFC) -- CPU_WriteMem(4 bytes @ 0xE0001028)
 -- CPU_WriteMem(4 bytes @ 0xE0001038) -- CPU_WriteMem(4 bytes @ 0xE0001048) -- CPU_WriteMem(4 bytes @ 0xE0001058) -- CPU_WriteMem(4 bytes @ 0xE0002000) -- CPU_ReadMem(4 bytes @ 0xE000EDFC) -- CPU_ReadMem(4 bytes @ 0xE0001000) (0065ms, 0840ms total)
T10E4 001:363 JLINK_ReadReg(R15 (PC))  returns 0x080002F8 (0001ms, 0841ms total)
T10E4 001:364 JLINK_ReadReg(XPSR)  returns 0x01000000 (0001ms, 0842ms total)
T10E4 001:365 JLINK_ReadMem (0x080002F8, 0x003C Bytes, ...) -- CPU_ReadMem(60 bytes @ 0x080002F8) - Data: 00 48 00 47 ED 02 00 08 FF F7 FE BF FE E7 10 0B ...  returns 0x00 (0002ms, 0844ms total)
T10E4 001:534 JLINK_ReadMem (0x40020400, 0x0014 Bytes, ...) -- CPU_ReadMem(20 bytes @ 0x40020400) - Data: 80 02 00 00 80 02 00 00 80 02 00 00 80 02 00 00 ...  returns 0x00 (0011ms, 0856ms total)
T10E4 001:545 JLINK_ReadMem (0x40020414, 0x0004 Bytes, ...) -- CPU_ReadMem(4 bytes @ 0x40020414) - Data: 80 02 00 00  returns 0x00 (0002ms, 0858ms total)
T10E4 001:547 JLINK_ReadMem (0x4002041C, 0x0008 Bytes, ...) -- CPU_ReadMem(8 bytes @ 0x4002041C) - Data: 80 02 00 00 80 02 00 00  returns 0x00 (0003ms, 0861ms total)
T10E4 001:550 JLINK_ReadMem (0x40020424, 0x0004 Bytes, ...) -- CPU_ReadMem(4 bytes @ 0x40020424) - Data: 80 02 00 00  returns 0x00 (0001ms, 0862ms total)
T10E4 005:194 JLINK_ReadMem (0x2000AA88, 0x00CC Bytes, ...) -- CPU_ReadMem(204 bytes @ 0x2000AA88) - Data: 00 00 00 00 00 00 00 00 00 00 00 00 00 00 00 00 ...  returns 0x00 (0017ms, 0879ms total)
T10E4 005:217 JLINK_ReadMem (0x2001CA00, 0x0108 Bytes, ...) -- CPU_ReadMem(264 bytes @ 0x2001CA00) - Data: 00 00 00 00 00 00 00 00 00 00 00 00 00 00 00 00 ...  returns 0x00 (0005ms, 0884ms total)
T19A8 005:874 JLINK_SetBPEx(Addr = 0x080107C8, Type = 0xFFFFFFF2)  returns 0x00000001 (0000ms, 0884ms total)
T19A8 005:875 JLINK_Go() -- CPU_WriteMem(4 bytes @ 0xE0002008) -- CPU_WriteMem(4 bytes @ 0xE000200C) -- CPU_WriteMem(4 bytes @ 0xE0002010) -- CPU_WriteMem(4 bytes @ 0xE0002014) -- CPU_WriteMem(4 bytes @ 0xE0002018) -- CPU_WriteMem(4 bytes @ 0xE000201C) -- CPU_WriteMem(4 bytes @ 0xE0001004) (0027ms, 0912ms total)
T19A8 006:004 JLINK_IsHalted()  returns TRUE (0006ms, 0919ms total)
T19A8 006:010 JLINK_Halt()  returns 0x00 (0001ms, 0914ms total)
T19A8 006:011 JLINK_IsHalted()  returns TRUE (0001ms, 0915ms total)
T19A8 006:012 JLINK_IsHalted()  returns TRUE (0001ms, 0915ms total)
T19A8 006:013 JLINK_IsHalted()  returns TRUE (0000ms, 0914ms total)
T19A8 006:014 JLINK_ReadReg(R15 (PC))  returns 0x080107C8 (0000ms, 0914ms total)
T19A8 006:014 JLINK_ReadReg(XPSR)  returns 0x01000000 (0000ms, 0914ms total)
T19A8 006:014 JLINK_ClrBPEx(BPHandle = 0x00000001)  returns 0x00 (0000ms, 0914ms total)
T19A8 006:014 JLINK_ReadMemU32(0xE000ED30, 0x0001 Items, ...) -- CPU_ReadMem(4 bytes @ 0xE000ED30) - Data: 03 00 00 00  returns 0x01 (0002ms, 0916ms total)
T19A8 006:016 JLINK_ReadMemU32(0xE0001028, 0x0001 Items, ...) -- CPU_ReadMem(4 bytes @ 0xE0001028) - Data: 00 00 00 00  returns 0x01 (0003ms, 0919ms total)
T19A8 006:020 JLINK_ReadMemU32(0xE0001038, 0x0001 Items, ...) -- CPU_ReadMem(4 bytes @ 0xE0001038) - Data: 00 02 00 00  returns 0x01 (0002ms, 0921ms total)
T19A8 006:022 JLINK_ReadMemU32(0xE0001048, 0x0001 Items, ...) -- CPU_ReadMem(4 bytes @ 0xE0001048) - Data: 00 00 00 00  returns 0x01 (0003ms, 0924ms total)
T19A8 006:025 JLINK_ReadMemU32(0xE0001058, 0x0001 Items, ...) -- CPU_ReadMem(4 bytes @ 0xE0001058) - Data: 00 00 00 00  returns 0x01 (0002ms, 0926ms total)
T19A8 006:028 JLINK_ReadReg(R0)  returns 0x00000001 (0000ms, 0926ms total)
T19A8 006:028 JLINK_ReadReg(R1)  returns 0x2000B4B0 (0001ms, 0927ms total)
T19A8 006:029 JLINK_ReadReg(R2)  returns 0x00013EE4 (0000ms, 0927ms total)
T19A8 006:029 JLINK_ReadReg(R3)  returns 0x00000000 (0001ms, 0928ms total)
T19A8 006:030 JLINK_ReadReg(R4)  returns 0x00000000 (0000ms, 0928ms total)
T19A8 006:031 JLINK_ReadReg(R5)  returns 0x2000B438 (0000ms, 0929ms total)
T19A8 006:031 JLINK_ReadReg(R6)  returns 0x00000000 (0001ms, 0930ms total)
T19A8 006:032 JLINK_ReadReg(R7)  returns 0x00000000 (0001ms, 0931ms total)
T19A8 006:033 JLINK_ReadReg(R8)  returns 0x00000000 (0001ms, 0932ms total)
T19A8 006:034 JLINK_ReadReg(R9)  returns 0x00000000 (0000ms, 0932ms total)
T19A8 006:034 JLINK_ReadReg(R10)  returns 0x0804DC08 (0000ms, 0932ms total)
T19A8 006:034 JLINK_ReadReg(R11)  returns 0x00000000 (0000ms, 0932ms total)
T19A8 006:034 JLINK_ReadReg(R12)  returns 0x2000B4AC (0001ms, 0933ms total)
T19A8 006:035 JLINK_ReadReg(R13 (SP))  returns 0x2001F698 (0000ms, 0933ms total)
T19A8 006:035 JLINK_ReadReg(R14)  returns 0x0800C317 (0000ms, 0933ms total)
T19A8 006:035 JLINK_ReadReg(R15 (PC))  returns 0x080107C8 (0001ms, 0934ms total)
T19A8 006:036 JLINK_ReadReg(XPSR)  returns 0x01000000 (0000ms, 0934ms total)
T19A8 006:036 JLINK_ReadReg(MSP)  returns 0x2001F698 (0001ms, 0935ms total)
T19A8 006:037 JLINK_ReadReg(PSP)  returns 0x00000000 (0000ms, 0935ms total)
T19A8 006:037 JLINK_ReadReg(CFBP)  returns 0x00002000 (0000ms, 0935ms total)
T10E4 006:039 JLINK_ReadMem (0x40020400, 0x0014 Bytes, ...) -- CPU_ReadMem(20 bytes @ 0x40020400) - Data: 81 02 00 00 02 00 00 00 CA 00 00 00 04 01 00 00 ...  returns 0x00 (0002ms, 0937ms total)
T10E4 006:041 JLINK_ReadMem (0x40020414, 0x0004 Bytes, ...) -- CPU_ReadMem(4 bytes @ 0x40020414) - Data: 02 00 00 00  returns 0x00 (0003ms, 0940ms total)
T10E4 006:044 JLINK_ReadMem (0x4002041C, 0x0008 Bytes, ...) -- CPU_ReadMem(8 bytes @ 0x4002041C) - Data: 00 00 00 00 00 00 00 00  returns 0x00 (0003ms, 0943ms total)
T10E4 006:047 JLINK_ReadMem (0x40020424, 0x0004 Bytes, ...) -- CPU_ReadMem(4 bytes @ 0x40020424) - Data: 00 00 00 00  returns 0x00 (0002ms, 0945ms total)
T10E4 006:082 JLINK_ReadMem (0x080106C8, 0x003C Bytes, ...) -- CPU_ReadMem(128 bytes @ 0x080106C0) -- Updating DA cache (128 bytes @ 0x080106C0) -- Read from DA cache (60 bytes @ 0x080106C8) - Data: 02 20 70 47 10 B5 04 00 E0 6A 2A 49 09 68 C9 6A ...  returns 0x00 (0004ms, 0949ms total)
T10E4 006:086 JLINK_ReadMem (0x08010704, 0x003C Bytes, ...) -- Read from DA cache (60 bytes @ 0x08010704) - Data: E0 62 2F 48 00 68 E1 6A 88 42 02 D2 E0 6A 2C 49 ...  returns 0x00 (0000ms, 0949ms total)
T10E4 006:086 JLINK_ReadMem (0x08010740, 0x003C Bytes, ...) -- CPU_ReadMem(64 bytes @ 0x08010740) -- Updating DA cache (64 bytes @ 0x08010740) -- Read from DA cache (60 bytes @ 0x08010740) - Data: E0 6A E1 6C 88 42 18 D0 20 1D 0A F0 A3 FE E0 6C ...  returns 0x00 (0003ms, 0952ms total)
T10E4 006:089 JLINK_ReadMem (0x0801077C, 0x003C Bytes, ...) -- CPU_ReadMem(64 bytes @ 0x08010780) -- Updating DA cache (64 bytes @ 0x08010780) -- Read from DA cache (60 bytes @ 0x0801077C) - Data: A8 8B 00 20 AC 8B 00 20 A4 8C 00 20 74 8C 00 20 ...  returns 0x00 (0003ms, 0955ms total)
T10E4 006:092 JLINK_ReadMem (0x080107C2, 0x0002 Bytes, ...) -- CPU_ReadMem(64 bytes @ 0x080107C0) -- Updating DA cache (64 bytes @ 0x080107C0) -- Read from DA cache (2 bytes @ 0x080107C2) - Data: 00 20  returns 0x00 (0003ms, 0958ms total)
T10E4 006:095 JLINK_ReadMem (0x080107C4, 0x003C Bytes, ...) -- Read from DA cache (60 bytes @ 0x080107C4) - Data: F0 8C 00 20 00 B5 85 B0 30 F0 3A FD 30 F0 BC FD ...  returns 0x00 (0001ms, 0959ms total)
T19A8 020:707 JLINK_Go() -- CPU_WriteMem(4 bytes @ 0xE0002008) (0006ms, 0965ms total)
T19A8 020:814 JLINK_IsHalted()  returns FALSE (0001ms, 0966ms total)
T19A8 020:916 JLINK_IsHalted()  returns FALSE (0002ms, 0967ms total)
T19A8 021:019 JLINK_IsHalted()  returns FALSE (0003ms, 0968ms total)
T19A8 021:123 JLINK_IsHalted()  returns FALSE (0002ms, 0967ms total)
T19A8 021:226 JLINK_ReadMemU32(0xE0001004, 0x0001 Items, ...) -- CPU is running -- CPU_ReadMem(4 bytes @ 0xE0001004) - Data: 80 26 F0 03  returns 0x01 (0003ms, 0968ms total)
T10E4 021:230 JLINK_ReadMem (0x40020400, 0x0014 Bytes, ...) -- CPU is running -- CPU_ReadMem(20 bytes @ 0x40020400) - Data: 85 02 00 01 02 00 00 00 CA 00 00 0A 00 01 00 00 ...  returns 0x00 (0007ms, 0975ms total)
T10E4 021:237 JLINK_ReadMem (0x40020414, 0x0004 Bytes, ...) -- CPU is running -- CPU_ReadMem(4 bytes @ 0x40020414) - Data: 02 00 00 00  returns 0x00 (0004ms, 0979ms total)
T10E4 021:241 JLINK_ReadMem (0x4002041C, 0x0008 Bytes, ...) -- CPU is running -- CPU_ReadMem(8 bytes @ 0x4002041C) - Data: 00 00 00 00 00 00 00 00  returns 0x00 (0005ms, 0984ms total)
T10E4 021:246 JLINK_ReadMem (0x40020424, 0x0004 Bytes, ...) -- CPU is running -- CPU_ReadMem(4 bytes @ 0x40020424) - Data: 00 00 00 00  returns 0x00 (0002ms, 0986ms total)
T19A8 021:265 JLINK_IsHalted()  returns FALSE (0002ms, 0989ms total)
T19A8 021:368 JLINK_IsHalted()  returns FALSE (0002ms, 0989ms total)
T19A8 021:471 JLINK_IsHalted()  returns FALSE (0003ms, 0990ms total)
T19A8 021:575 JLINK_IsHalted()  returns FALSE (0003ms, 0990ms total)
T19A8 021:679 JLINK_IsHalted()  returns FALSE (0002ms, 0989ms total)
T19A8 021:782 JLINK_ReadMemU32(0xE0001004, 0x0001 Items, ...) -- CPU is running -- CPU_ReadMem(4 bytes @ 0xE0001004) - Data: 40 0C EC 07  returns 0x01 (0004ms, 0991ms total)
T10E4 021:786 JLINK_ReadMem (0x40020400, 0x0014 Bytes, ...) -- CPU is running -- CPU_ReadMem(20 bytes @ 0x40020400) - Data: 85 02 00 01 02 00 00 00 CA 00 00 0A 00 01 00 00 ...  returns 0x00 (0007ms, 0998ms total)
T10E4 021:793 JLINK_ReadMem (0x40020414, 0x0004 Bytes, ...) -- CPU is running -- CPU_ReadMem(4 bytes @ 0x40020414) - Data: 01 00 00 00  returns 0x00 (0002ms, 1000ms total)
T10E4 021:795 JLINK_ReadMem (0x4002041C, 0x0008 Bytes, ...) -- CPU is running -- CPU_ReadMem(8 bytes @ 0x4002041C) - Data: 00 00 00 00 00 00 00 00  returns 0x00 (0004ms, 1004ms total)
T10E4 021:799 JLINK_ReadMem (0x40020424, 0x0004 Bytes, ...) -- CPU is running -- CPU_ReadMem(4 bytes @ 0x40020424) - Data: 00 00 00 00  returns 0x00 (0003ms, 1007ms total)
T19A8 021:813 JLINK_IsHalted()  returns FALSE (0003ms, 1010ms total)
T19A8 021:917 JLINK_IsHalted()  returns FALSE (0002ms, 1009ms total)
T19A8 022:020 JLINK_IsHalted()  returns FALSE (0002ms, 1009ms total)
T19A8 022:123 JLINK_IsHalted()  returns FALSE (0002ms, 1009ms total)
T19A8 022:226 JLINK_IsHalted()  returns FALSE (0002ms, 1009ms total)
T19A8 022:329 JLINK_ReadMemU32(0xE0001004, 0x0001 Items, ...) -- CPU is running -- CPU_ReadMem(4 bytes @ 0xE0001004) - Data: 00 F9 D1 0B  returns 0x01 (0002ms, 1009ms total)
T10E4 022:332 JLINK_ReadMem (0x40020400, 0x0014 Bytes, ...) -- CPU is running -- CPU_ReadMem(20 bytes @ 0x40020400) - Data: 85 02 00 01 02 00 00 00 CA 00 00 0A 00 01 00 00 ...  returns 0x00 (0007ms, 1016ms total)
T10E4 022:339 JLINK_ReadMem (0x40020414, 0x0004 Bytes, ...) -- CPU is running -- CPU_ReadMem(4 bytes @ 0x40020414) - Data: 01 00 00 00  returns 0x00 (0002ms, 1018ms total)
T10E4 022:341 JLINK_ReadMem (0x4002041C, 0x0008 Bytes, ...) -- CPU is running -- CPU_ReadMem(8 bytes @ 0x4002041C) - Data: 00 00 00 00 00 00 00 00  returns 0x00 (0004ms, 1022ms total)
T10E4 022:345 JLINK_ReadMem (0x40020424, 0x0004 Bytes, ...) -- CPU is running -- CPU_ReadMem(4 bytes @ 0x40020424) - Data: 00 00 00 00  returns 0x00 (0003ms, 1025ms total)
T19A8 022:356 JLINK_IsHalted()  returns FALSE (0003ms, 1028ms total)
T19A8 022:460 JLINK_IsHalted()  returns FALSE (0002ms, 1027ms total)
T19A8 022:563 JLINK_IsHalted()  returns FALSE (0002ms, 1027ms total)
T19A8 022:666 JLINK_IsHalted()  returns FALSE (0002ms, 1027ms total)
T19A8 022:769 JLINK_IsHalted()  returns FALSE (0002ms, 1027ms total)
T19A8 022:872 JLINK_ReadMemU32(0xE0001004, 0x0001 Items, ...) -- CPU is running -- CPU_ReadMem(4 bytes @ 0xE0001004) - Data: 00 11 B6 0F  returns 0x01 (0003ms, 1028ms total)
T10E4 022:884 JLINK_ReadMem (0x40020400, 0x0014 Bytes, ...) -- CPU is running -- CPU_ReadMem(20 bytes @ 0x40020400) - Data: 85 02 00 01 02 00 00 00 CA 00 00 0A 00 01 00 00 ...  returns 0x00 (0006ms, 1034ms total)
T10E4 022:890 JLINK_ReadMem (0x40020414, 0x0004 Bytes, ...) -- CPU is running -- CPU_ReadMem(4 bytes @ 0x40020414) - Data: 01 00 00 00  returns 0x00 (0003ms, 1037ms total)
T10E4 022:893 JLINK_ReadMem (0x4002041C, 0x0008 Bytes, ...) -- CPU is running -- CPU_ReadMem(8 bytes @ 0x4002041C) - Data: 00 00 00 00 00 00 00 00  returns 0x00 (0004ms, 1041ms total)
T10E4 022:897 JLINK_ReadMem (0x40020424, 0x0004 Bytes, ...) -- CPU is running -- CPU_ReadMem(4 bytes @ 0x40020424) - Data: 00 00 00 00  returns 0x00 (0003ms, 1044ms total)
T19A8 022:902 JLINK_IsHalted()  returns FALSE (0002ms, 1046ms total)
T19A8 023:005 JLINK_IsHalted()  returns FALSE (0002ms, 1046ms total)
T19A8 023:108 JLINK_IsHalted()  returns FALSE (0002ms, 1046ms total)
T19A8 023:211 JLINK_IsHalted()  returns FALSE (0003ms, 1047ms total)
T19A8 023:315 JLINK_IsHalted()  returns FALSE (0002ms, 1046ms total)
T19A8 023:418 JLINK_ReadMemU32(0xE0001004, 0x0001 Items, ...) -- CPU is running -- CPU_ReadMem(4 bytes @ 0xE0001004) - Data: C0 FD 9B 13  returns 0x01 (0002ms, 1046ms total)
T10E4 023:429 JLINK_ReadMem (0x40020400, 0x0014 Bytes, ...) -- CPU is running -- CPU_ReadMem(20 bytes @ 0x40020400) - Data: 85 02 00 01 02 00 00 00 CA 00 00 0A 00 01 00 00 ...  returns 0x00 (0008ms, 1054ms total)
T10E4 023:437 JLINK_ReadMem (0x40020414, 0x0004 Bytes, ...) -- CPU is running -- CPU_ReadMem(4 bytes @ 0x40020414) - Data: 01 00 00 00  returns 0x00 (0003ms, 1057ms total)
T10E4 023:440 JLINK_ReadMem (0x4002041C, 0x0008 Bytes, ...) -- CPU is running -- CPU_ReadMem(8 bytes @ 0x4002041C) - Data: 00 00 00 00 00 00 00 00  returns 0x00 (0004ms, 1061ms total)
T10E4 023:444 JLINK_ReadMem (0x40020424, 0x0004 Bytes, ...) -- CPU is running -- CPU_ReadMem(4 bytes @ 0x40020424) - Data: 00 00 00 00  returns 0x00 (0003ms, 1064ms total)
T19A8 023:448 JLINK_IsHalted()  returns FALSE (0002ms, 1066ms total)
T19A8 023:551 JLINK_IsHalted()  returns FALSE (0002ms, 1066ms total)
T19A8 023:654 JLINK_IsHalted()  returns FALSE (0003ms, 1067ms total)
T19A8 023:758 JLINK_IsHalted()  returns FALSE (0002ms, 1066ms total)
T19A8 023:861 JLINK_IsHalted()  returns FALSE (0003ms, 1067ms total)
T19A8 023:965 JLINK_ReadMemU32(0xE0001004, 0x0001 Items, ...) -- CPU is running -- CPU_ReadMem(4 bytes @ 0xE0001004) - Data: 80 3D 89 17  returns 0x01 (0004ms, 1068ms total)
T10E4 023:974 JLINK_ReadMem (0x40020400, 0x0014 Bytes, ...) -- CPU is running -- CPU_ReadMem(20 bytes @ 0x40020400) - Data: 85 02 00 01 02 00 00 00 CA 00 00 0A 00 01 00 00 ...  returns 0x00 (0007ms, 1075ms total)
T10E4 023:981 JLINK_ReadMem (0x40020414, 0x0004 Bytes, ...) -- CPU is running -- CPU_ReadMem(4 bytes @ 0x40020414) - Data: 01 00 00 00  returns 0x00 (0003ms, 1078ms total)
T10E4 023:984 JLINK_ReadMem (0x4002041C, 0x0008 Bytes, ...) -- CPU is running -- CPU_ReadMem(8 bytes @ 0x4002041C) - Data: 00 00 00 00 00 00 00 00  returns 0x00 (0003ms, 1081ms total)
T10E4 023:987 JLINK_ReadMem (0x40020424, 0x0004 Bytes, ...) -- CPU is running -- CPU_ReadMem(4 bytes @ 0x40020424) - Data: 00 00 00 00  returns 0x00 (0003ms, 1084ms total)
T19A8 023:991 JLINK_IsHalted()  returns FALSE (0002ms, 1086ms total)
T19A8 024:094 JLINK_IsHalted()  returns FALSE (0003ms, 1087ms total)
T19A8 024:198 JLINK_IsHalted()  returns FALSE (0002ms, 1086ms total)
T19A8 024:301 JLINK_IsHalted()  returns FALSE (0002ms, 1086ms total)
T19A8 024:404 JLINK_IsHalted()  returns FALSE (0003ms, 1087ms total)
T19A8 024:508 JLINK_ReadMemU32(0xE0001004, 0x0001 Items, ...) -- CPU is running -- CPU_ReadMem(4 bytes @ 0xE0001004) - Data: 00 AC 69 1B  returns 0x01 (0003ms, 1087ms total)
T10E4 024:512 JLINK_ReadMem (0x40020400, 0x0014 Bytes, ...) -- CPU is running -- CPU_ReadMem(20 bytes @ 0x40020400) - Data: 85 02 00 01 02 00 00 00 CA 00 00 0A 00 01 00 00 ...  returns 0x00 (0007ms, 1094ms total)
T10E4 024:519 JLINK_ReadMem (0x40020414, 0x0004 Bytes, ...) -- CPU is running -- CPU_ReadMem(4 bytes @ 0x40020414) - Data: 01 00 00 00  returns 0x00 (0003ms, 1097ms total)
T10E4 024:522 JLINK_ReadMem (0x4002041C, 0x0008 Bytes, ...) -- CPU is running -- CPU_ReadMem(8 bytes @ 0x4002041C) - Data: 00 00 00 00 00 00 00 00  returns 0x00 (0004ms, 1101ms total)
T10E4 024:526 JLINK_ReadMem (0x40020424, 0x0004 Bytes, ...) -- CPU is running -- CPU_ReadMem(4 bytes @ 0x40020424) - Data: 00 00 00 00  returns 0x00 (0003ms, 1104ms total)
T19A8 024:530 JLINK_IsHalted()  returns FALSE (0003ms, 1107ms total)
T19A8 024:634 JLINK_IsHalted()  returns FALSE (0003ms, 1107ms total)
T19A8 024:738 JLINK_IsHalted()  returns FALSE (0002ms, 1106ms total)
T19A8 024:841 JLINK_IsHalted()  returns FALSE (0002ms, 1106ms total)
T19A8 024:944 JLINK_IsHalted()  returns FALSE (0002ms, 1106ms total)
T19A8 025:047 JLINK_ReadMemU32(0xE0001004, 0x0001 Items, ...) -- CPU is running -- CPU_ReadMem(4 bytes @ 0xE0001004) - Data: 00 71 46 1F  returns 0x01 (0004ms, 1108ms total)
T10E4 025:051 JLINK_ReadMem (0x40020400, 0x0014 Bytes, ...) -- CPU is running -- CPU_ReadMem(20 bytes @ 0x40020400) - Data: 85 02 00 01 02 00 00 00 CA 00 00 0A 00 01 00 00 ...  returns 0x00 (0007ms, 1115ms total)
T10E4 025:058 JLINK_ReadMem (0x40020414, 0x0004 Bytes, ...) -- CPU is running -- CPU_ReadMem(4 bytes @ 0x40020414) - Data: 01 00 00 00  returns 0x00 (0003ms, 1118ms total)
T10E4 025:061 JLINK_ReadMem (0x4002041C, 0x0008 Bytes, ...) -- CPU is running -- CPU_ReadMem(8 bytes @ 0x4002041C) - Data: 00 00 00 00 00 00 00 00  returns 0x00 (0004ms, 1122ms total)
T10E4 025:065 JLINK_ReadMem (0x40020424, 0x0004 Bytes, ...) -- CPU is running -- CPU_ReadMem(4 bytes @ 0x40020424) - Data: 00 00 00 00  returns 0x00 (0003ms, 1125ms total)
T19A8 025:069 JLINK_IsHalted()  returns FALSE (0002ms, 1127ms total)
T19A8 025:172 JLINK_IsHalted()  returns FALSE (0002ms, 1127ms total)
T19A8 025:275 JLINK_IsHalted()  returns FALSE (0003ms, 1128ms total)
T19A8 025:379 JLINK_IsHalted()  returns FALSE (0003ms, 1128ms total)
T19A8 025:483 JLINK_IsHalted()  returns FALSE (0002ms, 1127ms total)
T19A8 025:586 JLINK_ReadMemU32(0xE0001004, 0x0001 Items, ...) -- CPU is running -- CPU_ReadMem(4 bytes @ 0xE0001004) - Data: 80 8C 1F 23  returns 0x01 (0003ms, 1128ms total)
T10E4 025:589 JLINK_ReadMem (0x40020400, 0x0014 Bytes, ...) -- CPU is running -- CPU_ReadMem(20 bytes @ 0x40020400) - Data: 85 02 00 01 02 00 00 00 CA 00 00 0A 00 01 00 00 ...  returns 0x00 (0007ms, 1135ms total)
T10E4 025:596 JLINK_ReadMem (0x40020414, 0x0004 Bytes, ...) -- CPU is running -- CPU_ReadMem(4 bytes @ 0x40020414) - Data: 01 00 00 00  returns 0x00 (0003ms, 1138ms total)
T10E4 025:599 JLINK_ReadMem (0x4002041C, 0x0008 Bytes, ...) -- CPU is running -- CPU_ReadMem(8 bytes @ 0x4002041C) - Data: 00 00 00 00 00 00 00 00  returns 0x00 (0004ms, 1142ms total)
T10E4 025:603 JLINK_ReadMem (0x40020424, 0x0004 Bytes, ...) -- CPU is running -- CPU_ReadMem(4 bytes @ 0x40020424) - Data: 00 00 00 00  returns 0x00 (0003ms, 1145ms total)
T19A8 025:609 JLINK_IsHalted()  returns FALSE (0002ms, 1147ms total)
T19A8 025:712 JLINK_IsHalted()  returns FALSE (0002ms, 1147ms total)
T19A8 025:815 JLINK_IsHalted()  returns FALSE (0003ms, 1148ms total)
T19A8 025:919 JLINK_IsHalted()  returns FALSE (0002ms, 1147ms total)
T19A8 026:022 JLINK_IsHalted()  returns FALSE (0002ms, 1147ms total)
T19A8 026:125 JLINK_ReadMemU32(0xE0001004, 0x0001 Items, ...) -- CPU is running -- CPU_ReadMem(4 bytes @ 0xE0001004) - Data: C0 7C FA 26  returns 0x01 (0003ms, 1148ms total)
T10E4 026:128 JLINK_ReadMem (0x40020400, 0x0014 Bytes, ...) -- CPU is running -- CPU_ReadMem(20 bytes @ 0x40020400) - Data: 85 02 00 01 02 00 00 00 CA 00 00 0A 00 01 00 00 ...  returns 0x00 (0007ms, 1155ms total)
T10E4 026:135 JLINK_ReadMem (0x40020414, 0x0004 Bytes, ...) -- CPU is running -- CPU_ReadMem(4 bytes @ 0x40020414) - Data: 01 00 00 00  returns 0x00 (0003ms, 1158ms total)
T10E4 026:138 JLINK_ReadMem (0x4002041C, 0x0008 Bytes, ...) -- CPU is running -- CPU_ReadMem(8 bytes @ 0x4002041C) - Data: 00 00 00 00 00 00 00 00  returns 0x00 (0004ms, 1162ms total)
T10E4 026:142 JLINK_ReadMem (0x40020424, 0x0004 Bytes, ...) -- CPU is running -- CPU_ReadMem(4 bytes @ 0x40020424) - Data: 00 00 00 00  returns 0x00 (0003ms, 1165ms total)
T19A8 026:147 JLINK_IsHalted()  returns FALSE (0003ms, 1168ms total)
T19A8 026:251 JLINK_IsHalted()  returns FALSE (0003ms, 1168ms total)
T19A8 026:355 JLINK_IsHalted()  returns FALSE (0003ms, 1168ms total)
T19A8 026:459 JLINK_IsHalted()  returns FALSE (0002ms, 1167ms total)
T19A8 026:562 JLINK_IsHalted()  returns FALSE (0002ms, 1167ms total)
T19A8 026:665 JLINK_ReadMemU32(0xE0001004, 0x0001 Items, ...) -- CPU is running -- CPU_ReadMem(4 bytes @ 0xE0001004) - Data: C0 41 D7 2A  returns 0x01 (0003ms, 1168ms total)
T10E4 026:668 JLINK_ReadMem (0x40020400, 0x0014 Bytes, ...) -- CPU is running -- CPU_ReadMem(20 bytes @ 0x40020400) - Data: 85 02 00 01 02 00 00 00 CA 00 00 0A 00 01 00 00 ...  returns 0x00 (0007ms, 1175ms total)
T10E4 026:675 JLINK_ReadMem (0x40020414, 0x0004 Bytes, ...) -- CPU is running -- CPU_ReadMem(4 bytes @ 0x40020414) - Data: 01 00 00 00  returns 0x00 (0003ms, 1178ms total)
T10E4 026:678 JLINK_ReadMem (0x4002041C, 0x0008 Bytes, ...) -- CPU is running -- CPU_ReadMem(8 bytes @ 0x4002041C) - Data: 00 00 00 00 00 00 00 00  returns 0x00 (0004ms, 1182ms total)
T10E4 026:682 JLINK_ReadMem (0x40020424, 0x0004 Bytes, ...) -- CPU is running -- CPU_ReadMem(4 bytes @ 0x40020424) - Data: 00 00 00 00  returns 0x00 (0003ms, 1185ms total)
T19A8 026:686 JLINK_IsHalted()  returns FALSE (0002ms, 1187ms total)
T19A8 026:789 JLINK_IsHalted()  returns FALSE (0002ms, 1187ms total)
T19A8 026:892 JLINK_IsHalted()  returns FALSE (0003ms, 1188ms total)
T19A8 026:996 JLINK_IsHalted()  returns FALSE (0002ms, 1187ms total)
T19A8 027:099 JLINK_IsHalted()  returns FALSE (0002ms, 1187ms total)
T19A8 027:202 JLINK_ReadMemU32(0xE0001004, 0x0001 Items, ...) -- CPU is running -- CPU_ReadMem(4 bytes @ 0xE0001004) - Data: 40 5D B0 2E  returns 0x01 (0004ms, 1189ms total)
T10E4 027:207 JLINK_ReadMem (0x40020400, 0x0014 Bytes, ...) -- CPU is running -- CPU_ReadMem(20 bytes @ 0x40020400) - Data: 85 02 00 01 02 00 00 00 CA 00 00 0A 00 01 00 00 ...  returns 0x00 (0006ms, 1195ms total)
T10E4 027:213 JLINK_ReadMem (0x40020414, 0x0004 Bytes, ...) -- CPU is running -- CPU_ReadMem(4 bytes @ 0x40020414) - Data: 01 00 00 00  returns 0x00 (0002ms, 1197ms total)
T10E4 027:215 JLINK_ReadMem (0x4002041C, 0x0008 Bytes, ...) -- CPU is running -- CPU_ReadMem(8 bytes @ 0x4002041C) - Data: 00 00 00 00 00 00 00 00  returns 0x00 (0004ms, 1201ms total)
T10E4 027:219 JLINK_ReadMem (0x40020424, 0x0004 Bytes, ...) -- CPU is running -- CPU_ReadMem(4 bytes @ 0x40020424) - Data: 00 00 00 00  returns 0x00 (0003ms, 1204ms total)
T19A8 027:224 JLINK_IsHalted()  returns FALSE (0002ms, 1206ms total)
T19A8 027:327 JLINK_IsHalted()  returns FALSE (0002ms, 1206ms total)
T19A8 027:430 JLINK_IsHalted()  returns FALSE (0003ms, 1207ms total)
T19A8 027:534 JLINK_IsHalted()  returns FALSE (0002ms, 1206ms total)
T19A8 027:637 JLINK_IsHalted()  returns FALSE (0002ms, 1206ms total)
T19A8 027:740 JLINK_ReadMemU32(0xE0001004, 0x0001 Items, ...) -- CPU is running -- CPU_ReadMem(4 bytes @ 0xE0001004) - Data: 5A CF 85 32  returns 0x01 (0002ms, 1206ms total)
T10E4 027:745 JLINK_ReadMem (0x40020400, 0x0014 Bytes, ...) -- CPU is running -- CPU_ReadMem(20 bytes @ 0x40020400) - Data: 85 02 00 01 02 00 00 00 CA 00 00 0A 00 01 00 00 ...  returns 0x00 (0007ms, 1213ms total)
T10E4 027:752 JLINK_ReadMem (0x40020414, 0x0004 Bytes, ...) -- CPU is running -- CPU_ReadMem(4 bytes @ 0x40020414) - Data: 01 00 00 00  returns 0x00 (0003ms, 1216ms total)
T10E4 027:755 JLINK_ReadMem (0x4002041C, 0x0008 Bytes, ...) -- CPU is running -- CPU_ReadMem(8 bytes @ 0x4002041C) - Data: 00 00 00 00 00 00 00 00  returns 0x00 (0004ms, 1220ms total)
T10E4 027:759 JLINK_ReadMem (0x40020424, 0x0004 Bytes, ...) -- CPU is running -- CPU_ReadMem(4 bytes @ 0x40020424) - Data: 00 00 00 00  returns 0x00 (0003ms, 1223ms total)
T19A8 027:763 JLINK_IsHalted()  returns FALSE (0002ms, 1225ms total)
T19A8 027:866 JLINK_IsHalted()  returns FALSE (0003ms, 1226ms total)
T19A8 027:970 JLINK_IsHalted()  returns FALSE (0002ms, 1225ms total)
T19A8 028:073 JLINK_IsHalted()  returns FALSE (0003ms, 1226ms total)
T19A8 028:177 JLINK_IsHalted()  returns FALSE (0002ms, 1225ms total)
T19A8 028:280 JLINK_ReadMemU32(0xE0001004, 0x0001 Items, ...) -- CPU is running -- CPU_ReadMem(4 bytes @ 0xE0001004) - Data: C0 3D 66 36  returns 0x01 (0004ms, 1227ms total)
T10E4 028:285 JLINK_ReadMem (0x40020400, 0x0014 Bytes, ...) -- CPU is running -- CPU_ReadMem(20 bytes @ 0x40020400) - Data: 85 02 00 01 02 00 00 00 CA 00 00 0A 00 01 00 00 ...  returns 0x00 (0005ms, 1232ms total)
T10E4 028:290 JLINK_ReadMem (0x40020414, 0x0004 Bytes, ...) -- CPU is running -- CPU_ReadMem(4 bytes @ 0x40020414) - Data: 01 00 00 00  returns 0x00 (0003ms, 1235ms total)
T10E4 028:293 JLINK_ReadMem (0x4002041C, 0x0008 Bytes, ...) -- CPU is running -- CPU_ReadMem(8 bytes @ 0x4002041C) - Data: 00 00 00 00 00 00 00 00  returns 0x00 (0004ms, 1239ms total)
T10E4 028:297 JLINK_ReadMem (0x40020424, 0x0004 Bytes, ...) -- CPU is running -- CPU_ReadMem(4 bytes @ 0x40020424) - Data: 00 00 00 00  returns 0x00 (0003ms, 1242ms total)
T19A8 028:302 JLINK_IsHalted()  returns FALSE (0002ms, 1244ms total)
T19A8 028:405 JLINK_IsHalted()  returns FALSE (0003ms, 1245ms total)
T19A8 028:509 JLINK_IsHalted()  returns FALSE (0003ms, 1245ms total)
T19A8 028:613 JLINK_IsHalted()  returns FALSE (0003ms, 1245ms total)
T19A8 028:717 JLINK_IsHalted()  returns FALSE (0002ms, 1244ms total)
T19A8 028:820 JLINK_ReadMemU32(0xE0001004, 0x0001 Items, ...) -- CPU is running -- CPU_ReadMem(4 bytes @ 0xE0001004) - Data: 00 2E 41 3A  returns 0x01 (0003ms, 1245ms total)
T10E4 028:823 JLINK_ReadMem (0x40020400, 0x0014 Bytes, ...) -- CPU is running -- CPU_ReadMem(20 bytes @ 0x40020400) - Data: 85 02 00 01 02 00 00 00 CA 00 00 0A 00 01 00 00 ...  returns 0x00 (0007ms, 1252ms total)
T10E4 028:830 JLINK_ReadMem (0x40020414, 0x0004 Bytes, ...) -- CPU is running -- CPU_ReadMem(4 bytes @ 0x40020414) - Data: 01 00 00 00  returns 0x00 (0003ms, 1255ms total)
T10E4 028:833 JLINK_ReadMem (0x4002041C, 0x0008 Bytes, ...) -- CPU is running -- CPU_ReadMem(8 bytes @ 0x4002041C) - Data: 00 00 00 00 00 00 00 00  returns 0x00 (0004ms, 1259ms total)
T10E4 028:837 JLINK_ReadMem (0x40020424, 0x0004 Bytes, ...) -- CPU is running -- CPU_ReadMem(4 bytes @ 0x40020424) - Data: 00 00 00 00  returns 0x00 (0002ms, 1261ms total)
T19A8 028:840 JLINK_IsHalted()  returns FALSE (0002ms, 1263ms total)
T19A8 028:943 JLINK_IsHalted()  returns FALSE (0002ms, 1263ms total)
T19A8 029:046 JLINK_IsHalted()  returns FALSE (0002ms, 1263ms total)
T19A8 029:149 JLINK_IsHalted()  returns FALSE (0003ms, 1264ms total)
T19A8 029:253 JLINK_IsHalted()  returns FALSE (0002ms, 1263ms total)
T19A8 029:356 JLINK_ReadMemU32(0xE0001004, 0x0001 Items, ...) -- CPU is running -- CPU_ReadMem(4 bytes @ 0xE0001004) - Data: 00 A0 16 3E  returns 0x01 (0003ms, 1264ms total)
T10E4 029:359 JLINK_ReadMem (0x40020400, 0x0014 Bytes, ...) -- CPU is running -- CPU_ReadMem(20 bytes @ 0x40020400) - Data: 85 02 00 01 02 00 00 00 CA 00 00 0A 00 01 00 00 ...  returns 0x00 (0007ms, 1271ms total)
T10E4 029:366 JLINK_ReadMem (0x40020414, 0x0004 Bytes, ...) -- CPU is running -- CPU_ReadMem(4 bytes @ 0x40020414) - Data: 01 00 00 00  returns 0x00 (0003ms, 1274ms total)
T10E4 029:369 JLINK_ReadMem (0x4002041C, 0x0008 Bytes, ...) -- CPU is running -- CPU_ReadMem(8 bytes @ 0x4002041C) - Data: 00 00 00 00 00 00 00 00  returns 0x00 (0004ms, 1278ms total)
T10E4 029:373 JLINK_ReadMem (0x40020424, 0x0004 Bytes, ...) -- CPU is running -- CPU_ReadMem(4 bytes @ 0x40020424) - Data: 00 00 00 00  returns 0x00 (0002ms, 1280ms total)
T19A8 029:376 JLINK_IsHalted()  returns FALSE (0002ms, 1282ms total)
T19A8 029:479 JLINK_IsHalted()  returns FALSE (0003ms, 1283ms total)
T19A8 029:584 JLINK_IsHalted()  returns FALSE (0003ms, 1283ms total)
T19A8 029:688 JLINK_IsHalted()  returns FALSE (0002ms, 1282ms total)
T19A8 029:791 JLINK_IsHalted()  returns FALSE (0002ms, 1282ms total)
T19A8 029:894 JLINK_ReadMemU32(0xE0001004, 0x0001 Items, ...) -- CPU is running -- CPU_ReadMem(4 bytes @ 0xE0001004) - Data: 80 BB EF 41  returns 0x01 (0003ms, 1283ms total)
T10E4 029:898 JLINK_ReadMem (0x40020400, 0x0014 Bytes, ...) -- CPU is running -- CPU_ReadMem(20 bytes @ 0x40020400) - Data: 85 02 00 01 02 00 00 00 CA 00 00 0A 00 01 00 00 ...  returns 0x00 (0006ms, 1290ms total)
T10E4 029:904 JLINK_ReadMem (0x40020414, 0x0004 Bytes, ...) -- CPU is running -- CPU_ReadMem(4 bytes @ 0x40020414) - Data: 01 00 00 00  returns 0x00 (0003ms, 1293ms total)
T10E4 029:907 JLINK_ReadMem (0x4002041C, 0x0008 Bytes, ...) -- CPU is running -- CPU_ReadMem(8 bytes @ 0x4002041C) - Data: 00 00 00 00 00 00 00 00  returns 0x00 (0004ms, 1297ms total)
T10E4 029:911 JLINK_ReadMem (0x40020424, 0x0004 Bytes, ...) -- CPU is running -- CPU_ReadMem(4 bytes @ 0x40020424) - Data: 00 00 00 00  returns 0x00 (0003ms, 1300ms total)
T19A8 029:915 JLINK_IsHalted()  returns FALSE (0002ms, 1302ms total)
T19A8 030:018 JLINK_IsHalted()  returns FALSE (0002ms, 1302ms total)
T19A8 030:121 JLINK_IsHalted()  returns FALSE (0002ms, 1302ms total)
T19A8 030:224 JLINK_IsHalted()  returns FALSE (0002ms, 1302ms total)
T19A8 030:327 JLINK_IsHalted()  returns FALSE (0002ms, 1302ms total)
T19A8 030:430 JLINK_ReadMemU32(0xE0001004, 0x0001 Items, ...) -- CPU is running -- CPU_ReadMem(4 bytes @ 0xE0001004) - Data: 40 02 C7 45  returns 0x01 (0005ms, 1305ms total)
T10E4 030:437 JLINK_ReadMem (0x40020400, 0x0014 Bytes, ...) -- CPU is running -- CPU_ReadMem(20 bytes @ 0x40020400) - Data: 85 02 00 01 02 00 00 00 CA 00 00 0A 00 01 00 00 ...  returns 0x00 (0007ms, 1312ms total)
T10E4 030:445 JLINK_ReadMem (0x40020414, 0x0004 Bytes, ...) -- CPU is running -- CPU_ReadMem(4 bytes @ 0x40020414) - Data: 01 00 00 00  returns 0x00 (0002ms, 1315ms total)
T10E4 030:448 JLINK_ReadMem (0x4002041C, 0x0008 Bytes, ...) -- CPU is running -- CPU_ReadMem(8 bytes @ 0x4002041C) - Data: 00 00 00 00 00 00 00 00  returns 0x00 (0004ms, 1320ms total)
T10E4 030:452 JLINK_ReadMem (0x40020424, 0x0004 Bytes, ...) -- CPU is running -- CPU_ReadMem(4 bytes @ 0x40020424) - Data: 00 00 00 00  returns 0x00 (0003ms, 1323ms total)
T19A8 030:456 JLINK_IsHalted()  returns FALSE (0002ms, 1325ms total)
T19A8 030:559 JLINK_IsHalted()  returns FALSE (0003ms, 1326ms total)
T19A8 030:663 JLINK_IsHalted()  returns FALSE (0003ms, 1326ms total)
T19A8 030:767 JLINK_IsHalted()  returns FALSE (0002ms, 1325ms total)
T19A8 030:870 JLINK_IsHalted()  returns FALSE (0003ms, 1326ms total)
T19A8 030:974 JLINK_ReadMemU32(0xE0001004, 0x0001 Items, ...) -- CPU is running -- CPU_ReadMem(4 bytes @ 0xE0001004) - Data: C0 70 A7 49  returns 0x01 (0002ms, 1325ms total)
T10E4 030:976 JLINK_ReadMem (0x40020400, 0x0014 Bytes, ...) -- CPU is running -- CPU_ReadMem(20 bytes @ 0x40020400) - Data: 85 02 00 01 02 00 00 00 CA 00 00 0A 00 01 00 00 ...  returns 0x00 (0007ms, 1332ms total)
T10E4 030:983 JLINK_ReadMem (0x40020414, 0x0004 Bytes, ...) -- CPU is running -- CPU_ReadMem(4 bytes @ 0x40020414) - Data: 01 00 00 00  returns 0x00 (0003ms, 1335ms total)
T10E4 030:986 JLINK_ReadMem (0x4002041C, 0x0008 Bytes, ...) -- CPU is running -- CPU_ReadMem(8 bytes @ 0x4002041C) - Data: 00 00 00 00 00 00 00 00  returns 0x00 (0005ms, 1340ms total)
T10E4 030:991 JLINK_ReadMem (0x40020424, 0x0004 Bytes, ...) -- CPU is running -- CPU_ReadMem(4 bytes @ 0x40020424) - Data: 00 00 00 00  returns 0x00 (0003ms, 1343ms total)
T19A8 030:995 JLINK_IsHalted()  returns FALSE (0002ms, 1345ms total)
T19A8 031:098 JLINK_IsHalted()  returns FALSE (0002ms, 1345ms total)
T19A8 031:201 JLINK_IsHalted()  returns FALSE (0002ms, 1345ms total)
T19A8 031:304 JLINK_IsHalted()  returns FALSE (0002ms, 1345ms total)
T19A8 031:407 JLINK_IsHalted()  returns FALSE (0002ms, 1345ms total)
T19A8 031:510 JLINK_ReadMemU32(0xE0001004, 0x0001 Items, ...) -- CPU is running -- CPU_ReadMem(4 bytes @ 0xE0001004) - Data: 40 8C 80 4D  returns 0x01 (0004ms, 1347ms total)
T10E4 031:519 JLINK_ReadMem (0x40020400, 0x0014 Bytes, ...) -- CPU is running -- CPU_ReadMem(20 bytes @ 0x40020400) - Data: 85 02 00 01 02 00 00 00 CA 00 00 0A 00 01 00 00 ...  returns 0x00 (0006ms, 1353ms total)
T10E4 031:525 JLINK_ReadMem (0x40020414, 0x0004 Bytes, ...) -- CPU is running -- CPU_ReadMem(4 bytes @ 0x40020414) - Data: 01 00 00 00  returns 0x00 (0004ms, 1357ms total)
T10E4 031:529 JLINK_ReadMem (0x4002041C, 0x0008 Bytes, ...) -- CPU is running -- CPU_ReadMem(8 bytes @ 0x4002041C) - Data: 00 00 00 00 00 00 00 00  returns 0x00 (0004ms, 1361ms total)
T10E4 031:533 JLINK_ReadMem (0x40020424, 0x0004 Bytes, ...) -- CPU is running -- CPU_ReadMem(4 bytes @ 0x40020424) - Data: 00 00 00 00  returns 0x00 (0002ms, 1363ms total)
T19A8 031:537 JLINK_IsHalted()  returns FALSE (0003ms, 1366ms total)
T19A8 031:641 JLINK_IsHalted()  returns FALSE (0002ms, 1365ms total)
T19A8 031:744 JLINK_IsHalted()  returns FALSE (0003ms, 1366ms total)
T19A8 031:848 JLINK_IsHalted()  returns FALSE (0002ms, 1365ms total)
T19A8 031:951 JLINK_IsHalted()  returns FALSE (0003ms, 1366ms total)
T19A8 032:055 JLINK_ReadMemU32(0xE0001004, 0x0001 Items, ...) -- CPU is running -- CPU_ReadMem(4 bytes @ 0xE0001004) - Data: 80 CF 62 51  returns 0x01 (0002ms, 1365ms total)
T10E4 032:059 JLINK_ReadMem (0x40020400, 0x0014 Bytes, ...) -- CPU is running -- CPU_ReadMem(20 bytes @ 0x40020400) - Data: 85 02 00 01 02 00 00 00 CA 00 00 0A 00 01 00 00 ...  returns 0x00 (0006ms, 1371ms total)
T10E4 032:065 JLINK_ReadMem (0x40020414, 0x0004 Bytes, ...) -- CPU is running -- CPU_ReadMem(4 bytes @ 0x40020414) - Data: 01 00 00 00  returns 0x00 (0003ms, 1374ms total)
T10E4 032:069 JLINK_ReadMem (0x4002041C, 0x0008 Bytes, ...) -- CPU is running -- CPU_ReadMem(8 bytes @ 0x4002041C) - Data: 00 00 00 00 00 00 00 00  returns 0x00 (0003ms, 1378ms total)
T10E4 032:072 JLINK_ReadMem (0x40020424, 0x0004 Bytes, ...) -- CPU is running -- CPU_ReadMem(4 bytes @ 0x40020424) - Data: 00 00 00 00  returns 0x00 (0003ms, 1381ms total)
T19A8 032:076 JLINK_IsHalted()  returns FALSE (0002ms, 1383ms total)
T19A8 032:179 JLINK_IsHalted()  returns FALSE (0002ms, 1383ms total)
T19A8 032:282 JLINK_IsHalted()  returns FALSE (0002ms, 1383ms total)
T19A8 032:385 JLINK_IsHalted()  returns FALSE (0002ms, 1383ms total)
T19A8 032:488 JLINK_IsHalted()  returns FALSE (0003ms, 1384ms total)
T19A8 032:592 JLINK_ReadMemU32(0xE0001004, 0x0001 Items, ...) -- CPU is running -- CPU_ReadMem(4 bytes @ 0xE0001004) - Data: 00 EB 3B 55  returns 0x01 (0003ms, 1384ms total)
T10E4 032:596 JLINK_ReadMem (0x40020400, 0x0014 Bytes, ...) -- CPU is running -- CPU_ReadMem(20 bytes @ 0x40020400) - Data: 85 02 00 01 02 00 00 00 CA 00 00 0A 00 01 00 00 ...  returns 0x00 (0006ms, 1391ms total)
T10E4 032:602 JLINK_ReadMem (0x40020414, 0x0004 Bytes, ...) -- CPU is running -- CPU_ReadMem(4 bytes @ 0x40020414) - Data: 01 00 00 00  returns 0x00 (0003ms, 1394ms total)
T10E4 032:605 JLINK_ReadMem (0x4002041C, 0x0008 Bytes, ...) -- CPU is running -- CPU_ReadMem(8 bytes @ 0x4002041C) - Data: 00 00 00 00 00 00 00 00  returns 0x00 (0004ms, 1398ms total)
T10E4 032:609 JLINK_ReadMem (0x40020424, 0x0004 Bytes, ...) -- CPU is running -- CPU_ReadMem(4 bytes @ 0x40020424) - Data: 00 00 00 00  returns 0x00 (0003ms, 1401ms total)
T19A8 032:615 JLINK_IsHalted()  returns FALSE (0001ms, 1402ms total)
T19A8 032:717 JLINK_IsHalted()  returns FALSE (0002ms, 1403ms total)
T19A8 032:820 JLINK_IsHalted()  returns FALSE (0002ms, 1403ms total)
T19A8 032:923 JLINK_IsHalted()  returns FALSE (0002ms, 1403ms total)
T19A8 033:026 JLINK_IsHalted()  returns FALSE (0002ms, 1403ms total)
T19A8 033:129 JLINK_ReadMemU32(0xE0001004, 0x0001 Items, ...) -- CPU is running -- CPU_ReadMem(4 bytes @ 0xE0001004) - Data: 00 5D 11 59  returns 0x01 (0002ms, 1403ms total)
T10E4 033:131 JLINK_ReadMem (0x40020400, 0x0014 Bytes, ...) -- CPU is running -- CPU_ReadMem(20 bytes @ 0x40020400) - Data: 85 02 00 01 02 00 00 00 CA 00 00 0A 00 01 00 00 ...  returns 0x00 (0007ms, 1410ms total)
T10E4 033:138 JLINK_ReadMem (0x40020414, 0x0004 Bytes, ...) -- CPU is running -- CPU_ReadMem(4 bytes @ 0x40020414) - Data: 01 00 00 00  returns 0x00 (0003ms, 1413ms total)
T10E4 033:141 JLINK_ReadMem (0x4002041C, 0x0008 Bytes, ...) -- CPU is running -- CPU_ReadMem(8 bytes @ 0x4002041C) - Data: 00 00 00 00 00 00 00 00  returns 0x00 (0002ms, 1415ms total)
T10E4 033:143 JLINK_ReadMem (0x40020424, 0x0004 Bytes, ...) -- CPU is running -- CPU_ReadMem(4 bytes @ 0x40020424) - Data: 00 00 00 00  returns 0x00 (0003ms, 1418ms total)
T19A8 033:147 JLINK_IsHalted()  returns FALSE (0002ms, 1420ms total)
T19A8 033:250 JLINK_IsHalted()  returns FALSE (0002ms, 1420ms total)
T19A8 033:353 JLINK_IsHalted()  returns FALSE (0003ms, 1421ms total)
T19A8 033:457 JLINK_IsHalted()  returns FALSE (0002ms, 1420ms total)
T19A8 033:560 JLINK_IsHalted()  returns FALSE (0002ms, 1420ms total)
T19A8 033:663 JLINK_ReadMemU32(0xE0001004, 0x0001 Items, ...) -- CPU is running -- CPU_ReadMem(4 bytes @ 0xE0001004) - Data: 40 FA E4 5C  returns 0x01 (0003ms, 1421ms total)
T10E4 033:667 JLINK_ReadMem (0x40020400, 0x0014 Bytes, ...) -- CPU is running -- CPU_ReadMem(20 bytes @ 0x40020400) - Data: 85 02 00 01 02 00 00 00 CA 00 00 0A 00 01 00 00 ...  returns 0x00 (0006ms, 1428ms total)
T10E4 033:673 JLINK_ReadMem (0x40020414, 0x0004 Bytes, ...) -- CPU is running -- CPU_ReadMem(4 bytes @ 0x40020414) - Data: 01 00 00 00  returns 0x00 (0003ms, 1431ms total)
T10E4 033:676 JLINK_ReadMem (0x4002041C, 0x0008 Bytes, ...) -- CPU is running -- CPU_ReadMem(8 bytes @ 0x4002041C) - Data: 00 00 00 00 00 00 00 00  returns 0x00 (0004ms, 1435ms total)
T10E4 033:680 JLINK_ReadMem (0x40020424, 0x0004 Bytes, ...) -- CPU is running -- CPU_ReadMem(4 bytes @ 0x40020424) - Data: 00 00 00 00  returns 0x00 (0003ms, 1438ms total)
T19A8 033:685 JLINK_IsHalted()  returns FALSE (0003ms, 1442ms total)
T19A8 033:789 JLINK_IsHalted()  returns FALSE (0002ms, 1441ms total)
T19A8 033:892 JLINK_IsHalted()  returns FALSE (0003ms, 1442ms total)
T19A8 033:996 JLINK_IsHalted()  returns FALSE (0002ms, 1441ms total)
T19A8 034:099 JLINK_IsHalted()  returns FALSE (0002ms, 1441ms total)
T19A8 034:202 JLINK_ReadMemU32(0xE0001004, 0x0001 Items, ...) -- CPU is running -- CPU_ReadMem(4 bytes @ 0xE0001004) - Data: 80 EA BF 60  returns 0x01 (0003ms, 1442ms total)
T10E4 034:206 JLINK_ReadMem (0x40020400, 0x0014 Bytes, ...) -- CPU is running -- CPU_ReadMem(20 bytes @ 0x40020400) - Data: 85 02 00 01 02 00 00 00 CA 00 00 0A 00 01 00 00 ...  returns 0x00 (0006ms, 1449ms total)
T10E4 034:212 JLINK_ReadMem (0x40020414, 0x0004 Bytes, ...) -- CPU is running -- CPU_ReadMem(4 bytes @ 0x40020414) - Data: 01 00 00 00  returns 0x00 (0003ms, 1452ms total)
T10E4 034:216 JLINK_ReadMem (0x4002041C, 0x0008 Bytes, ...) -- CPU is running -- CPU_ReadMem(8 bytes @ 0x4002041C) - Data: 00 00 00 00 00 00 00 00  returns 0x00 (0003ms, 1456ms total)
T10E4 034:219 JLINK_ReadMem (0x40020424, 0x0004 Bytes, ...) -- CPU is running -- CPU_ReadMem(4 bytes @ 0x40020424) - Data: 00 00 00 00  returns 0x00 (0003ms, 1459ms total)
T19A8 034:223 JLINK_IsHalted()  returns FALSE (0003ms, 1462ms total)
T19A8 034:327 JLINK_IsHalted()  returns FALSE (0002ms, 1461ms total)
T19A8 034:430 JLINK_IsHalted()  returns FALSE (0002ms, 1461ms total)
T19A8 034:533 JLINK_IsHalted()  returns FALSE (0002ms, 1461ms total)
T19A8 034:636 JLINK_IsHalted()  returns FALSE (0002ms, 1461ms total)
T19A8 034:739 JLINK_ReadMemU32(0xE0001004, 0x0001 Items, ...) -- CPU is running -- CPU_ReadMem(4 bytes @ 0xE0001004) - Data: 40 31 97 64  returns 0x01 (0003ms, 1462ms total)
T10E4 034:743 JLINK_ReadMem (0x40020400, 0x0014 Bytes, ...) -- CPU is running -- CPU_ReadMem(20 bytes @ 0x40020400) - Data: 85 02 00 01 02 00 00 00 CA 00 00 0A 00 01 00 00 ...  returns 0x00 (0006ms, 1468ms total)
T10E4 034:749 JLINK_ReadMem (0x40020414, 0x0004 Bytes, ...) -- CPU is running -- CPU_ReadMem(4 bytes @ 0x40020414) - Data: 01 00 00 00  returns 0x00 (0003ms, 1471ms total)
T10E4 034:752 JLINK_ReadMem (0x4002041C, 0x0008 Bytes, ...) -- CPU is running -- CPU_ReadMem(8 bytes @ 0x4002041C) - Data: 00 00 00 00 00 00 00 00  returns 0x00 (0003ms, 1474ms total)
T10E4 034:755 JLINK_ReadMem (0x40020424, 0x0004 Bytes, ...) -- CPU is running -- CPU_ReadMem(4 bytes @ 0x40020424) - Data: 00 00 00 00  returns 0x00 (0003ms, 1477ms total)
T19A8 034:759 JLINK_IsHalted()  returns FALSE (0002ms, 1479ms total)
T19A8 034:862 JLINK_IsHalted()  returns FALSE (0002ms, 1479ms total)
T19A8 034:965 JLINK_IsHalted()  returns FALSE (0002ms, 1479ms total)
T19A8 035:068 JLINK_IsHalted()  returns FALSE (0002ms, 1479ms total)
T19A8 035:171 JLINK_IsHalted()  returns FALSE (0002ms, 1479ms total)
T19A8 035:274 JLINK_ReadMemU32(0xE0001004, 0x0001 Items, ...) -- CPU is running -- CPU_ReadMem(4 bytes @ 0xE0001004) - Data: 80 CE 6A 68  returns 0x01 (0003ms, 1480ms total)
T10E4 035:280 JLINK_ReadMem (0x40020400, 0x0014 Bytes, ...) -- CPU is running -- CPU_ReadMem(20 bytes @ 0x40020400) - Data: 85 02 00 01 02 00 00 00 CA 00 00 0A 00 01 00 00 ...  returns 0x00 (0006ms, 1486ms total)
T10E4 035:288 JLINK_ReadMem (0x40020414, 0x0004 Bytes, ...) -- CPU is running -- CPU_ReadMem(4 bytes @ 0x40020414) - Data: 01 00 00 00  returns 0x00 (0003ms, 1489ms total)
T10E4 035:291 JLINK_ReadMem (0x4002041C, 0x0008 Bytes, ...) -- CPU is running -- CPU_ReadMem(8 bytes @ 0x4002041C) - Data: 00 00 00 00 00 00 00 00  returns 0x00 (0004ms, 1493ms total)
T10E4 035:296 JLINK_ReadMem (0x40020424, 0x0004 Bytes, ...) -- CPU is running -- CPU_ReadMem(4 bytes @ 0x40020424) - Data: 00 00 00 00  returns 0x00 (0002ms, 1496ms total)
T19A8 035:299 JLINK_IsHalted()  returns FALSE (0002ms, 1498ms total)
T19A8 035:402 JLINK_IsHalted()  returns FALSE (0002ms, 1498ms total)
T19A8 035:505 JLINK_IsHalted()  returns FALSE (0002ms, 1498ms total)
T19A8 035:608 JLINK_IsHalted()  returns FALSE (0002ms, 1498ms total)
T19A8 035:711 JLINK_IsHalted()  returns FALSE (0002ms, 1498ms total)
T19A8 035:814 JLINK_ReadMemU32(0xE0001004, 0x0001 Items, ...) -- CPU is running -- CPU_ReadMem(4 bytes @ 0xE0001004) - Data: 80 93 47 6C  returns 0x01 (0003ms, 1499ms total)
T10E4 035:817 JLINK_ReadMem (0x40020400, 0x0014 Bytes, ...) -- CPU is running -- CPU_ReadMem(20 bytes @ 0x40020400) - Data: 85 02 00 01 02 00 00 00 CA 00 00 0A 00 01 00 00 ...  returns 0x00 (0006ms, 1505ms total)
T10E4 035:823 JLINK_ReadMem (0x40020414, 0x0004 Bytes, ...) -- CPU is running -- CPU_ReadMem(4 bytes @ 0x40020414) - Data: 01 00 00 00  returns 0x00 (0003ms, 1508ms total)
